                     * 30-comparator-driven-reset-core.cir
                     Transient Analysis  Sat Apr 11 15:44:16  2026
--------------------------------------------------------------------------------
Index   time            v(ramp)         v(threshold_nod v(reset_ctrl)   
--------------------------------------------------------------------------------
0	1.000000e-09	1.000000e-05	-9.99990e-01	4.999950e-05	
1	2.000000e-09	2.000000e-05	-9.99980e-01	4.999950e-05	
2	4.000000e-09	4.000000e-05	-9.99960e-01	4.999950e-05	
3	8.000000e-09	8.000000e-05	-9.99920e-01	4.999950e-05	
4	1.600000e-08	1.600000e-04	-9.99840e-01	4.999950e-05	
5	3.200000e-08	3.199999e-04	-9.99680e-01	4.999950e-05	
6	6.400000e-08	6.399998e-04	-9.99360e-01	4.999950e-05	
7	1.000000e-07	9.999995e-04	-9.99000e-01	4.999950e-05	
8	1.064000e-07	1.063999e-03	-9.98936e-01	4.999950e-05	
9	1.192000e-07	1.191999e-03	-9.98808e-01	4.999950e-05	
10	1.448000e-07	1.447999e-03	-9.98552e-01	4.999950e-05	
11	1.960000e-07	1.959998e-03	-9.98040e-01	4.999950e-05	
12	2.960000e-07	2.959996e-03	-9.97040e-01	4.999950e-05	
13	3.960000e-07	3.959992e-03	-9.96040e-01	4.999950e-05	
14	4.960000e-07	4.959988e-03	-9.95040e-01	4.999950e-05	
15	5.960000e-07	5.959982e-03	-9.94040e-01	4.999950e-05	
16	6.960000e-07	6.959976e-03	-9.93040e-01	4.999950e-05	
17	7.960000e-07	7.959968e-03	-9.92040e-01	4.999950e-05	
18	8.960000e-07	8.959959e-03	-9.91040e-01	4.999950e-05	
19	9.960000e-07	9.959950e-03	-9.90040e-01	4.999950e-05	
20	1.096000e-06	1.095994e-02	-9.89040e-01	4.999950e-05	
21	1.196000e-06	1.195993e-02	-9.88040e-01	4.999950e-05	
22	1.296000e-06	1.295992e-02	-9.87040e-01	4.999950e-05	
23	1.396000e-06	1.395990e-02	-9.86040e-01	4.999950e-05	
24	1.496000e-06	1.495989e-02	-9.85040e-01	4.999950e-05	
25	1.596000e-06	1.595987e-02	-9.84040e-01	4.999950e-05	
26	1.696000e-06	1.695985e-02	-9.83040e-01	4.999950e-05	
27	1.796000e-06	1.795984e-02	-9.82040e-01	4.999950e-05	
28	1.896000e-06	1.895982e-02	-9.81040e-01	4.999950e-05	
29	1.996000e-06	1.995980e-02	-9.80040e-01	4.999950e-05	
30	2.096000e-06	2.095978e-02	-9.79040e-01	4.999950e-05	
31	2.196000e-06	2.195976e-02	-9.78040e-01	4.999950e-05	
32	2.296000e-06	2.295973e-02	-9.77040e-01	4.999950e-05	
33	2.396000e-06	2.395971e-02	-9.76040e-01	4.999950e-05	
34	2.496000e-06	2.495969e-02	-9.75040e-01	4.999950e-05	
35	2.596000e-06	2.595966e-02	-9.74040e-01	4.999950e-05	
36	2.696000e-06	2.695963e-02	-9.73040e-01	4.999950e-05	
37	2.796000e-06	2.795961e-02	-9.72040e-01	4.999950e-05	
38	2.896000e-06	2.895958e-02	-9.71040e-01	4.999950e-05	
39	2.996000e-06	2.995955e-02	-9.70040e-01	4.999950e-05	
40	3.096000e-06	3.095952e-02	-9.69040e-01	4.999950e-05	
41	3.196000e-06	3.195948e-02	-9.68041e-01	4.999950e-05	
42	3.296000e-06	3.295945e-02	-9.67041e-01	4.999950e-05	
43	3.396000e-06	3.395942e-02	-9.66041e-01	4.999950e-05	
44	3.496000e-06	3.495938e-02	-9.65041e-01	4.999950e-05	
45	3.596000e-06	3.595935e-02	-9.64041e-01	4.999950e-05	
46	3.696000e-06	3.695931e-02	-9.63041e-01	4.999950e-05	
47	3.796000e-06	3.795927e-02	-9.62041e-01	4.999950e-05	
48	3.896000e-06	3.895923e-02	-9.61041e-01	4.999950e-05	
49	3.996000e-06	3.995919e-02	-9.60041e-01	4.999950e-05	
50	4.096000e-06	4.095915e-02	-9.59041e-01	4.999950e-05	
51	4.196000e-06	4.195911e-02	-9.58041e-01	4.999950e-05	
52	4.296000e-06	4.295907e-02	-9.57041e-01	4.999950e-05	
53	4.396000e-06	4.395902e-02	-9.56041e-01	4.999950e-05	
54	4.496000e-06	4.495898e-02	-9.55041e-01	4.999950e-05	

Index   time            v(ramp)         v(threshold_nod v(reset_ctrl)   
--------------------------------------------------------------------------------
55	4.596000e-06	4.595893e-02	-9.54041e-01	4.999950e-05	
56	4.696000e-06	4.695889e-02	-9.53041e-01	4.999950e-05	
57	4.796000e-06	4.795884e-02	-9.52041e-01	4.999950e-05	
58	4.896000e-06	4.895879e-02	-9.51041e-01	4.999950e-05	
59	4.996000e-06	4.995874e-02	-9.50041e-01	4.999950e-05	
60	5.096000e-06	5.095869e-02	-9.49041e-01	4.999950e-05	
61	5.196000e-06	5.195864e-02	-9.48041e-01	4.999950e-05	
62	5.296000e-06	5.295858e-02	-9.47041e-01	4.999950e-05	
63	5.396000e-06	5.395853e-02	-9.46041e-01	4.999950e-05	
64	5.496000e-06	5.495847e-02	-9.45042e-01	4.999950e-05	
65	5.596000e-06	5.595842e-02	-9.44042e-01	4.999950e-05	
66	5.696000e-06	5.695836e-02	-9.43042e-01	4.999950e-05	
67	5.796000e-06	5.795830e-02	-9.42042e-01	4.999950e-05	
68	5.896000e-06	5.895824e-02	-9.41042e-01	4.999950e-05	
69	5.996000e-06	5.995818e-02	-9.40042e-01	4.999950e-05	
70	6.096000e-06	6.095812e-02	-9.39042e-01	4.999950e-05	
71	6.196000e-06	6.195806e-02	-9.38042e-01	4.999950e-05	
72	6.296000e-06	6.295800e-02	-9.37042e-01	4.999950e-05	
73	6.396000e-06	6.395793e-02	-9.36042e-01	4.999950e-05	
74	6.496000e-06	6.495787e-02	-9.35042e-01	4.999950e-05	
75	6.596000e-06	6.595780e-02	-9.34042e-01	4.999950e-05	
76	6.696000e-06	6.695774e-02	-9.33042e-01	4.999950e-05	
77	6.796000e-06	6.795767e-02	-9.32042e-01	4.999950e-05	
78	6.896000e-06	6.895760e-02	-9.31042e-01	4.999950e-05	
79	6.996000e-06	6.995753e-02	-9.30042e-01	4.999950e-05	
80	7.096000e-06	7.095746e-02	-9.29043e-01	4.999950e-05	
81	7.196000e-06	7.195739e-02	-9.28043e-01	4.999950e-05	
82	7.296000e-06	7.295731e-02	-9.27043e-01	4.999950e-05	
83	7.396000e-06	7.395724e-02	-9.26043e-01	4.999950e-05	
84	7.496000e-06	7.495716e-02	-9.25043e-01	4.999950e-05	
85	7.596000e-06	7.595709e-02	-9.24043e-01	4.999950e-05	
86	7.696000e-06	7.695701e-02	-9.23043e-01	4.999950e-05	
87	7.796000e-06	7.795693e-02	-9.22043e-01	4.999950e-05	
88	7.896000e-06	7.895685e-02	-9.21043e-01	4.999950e-05	
89	7.996000e-06	7.995677e-02	-9.20043e-01	4.999950e-05	
90	8.096000e-06	8.095669e-02	-9.19043e-01	4.999950e-05	
91	8.196000e-06	8.195661e-02	-9.18043e-01	4.999950e-05	
92	8.296000e-06	8.295652e-02	-9.17043e-01	4.999950e-05	
93	8.396000e-06	8.395644e-02	-9.16044e-01	4.999950e-05	
94	8.496000e-06	8.495635e-02	-9.15044e-01	4.999950e-05	
95	8.596000e-06	8.595627e-02	-9.14044e-01	4.999950e-05	
96	8.696000e-06	8.695618e-02	-9.13044e-01	4.999950e-05	
97	8.796000e-06	8.795609e-02	-9.12044e-01	4.999950e-05	
98	8.896000e-06	8.895600e-02	-9.11044e-01	4.999950e-05	
99	8.996000e-06	8.995591e-02	-9.10044e-01	4.999950e-05	
100	9.096000e-06	9.095582e-02	-9.09044e-01	4.999950e-05	
101	9.196000e-06	9.195573e-02	-9.08044e-01	4.999950e-05	
102	9.296000e-06	9.295564e-02	-9.07044e-01	4.999950e-05	
103	9.396000e-06	9.395554e-02	-9.06044e-01	4.999950e-05	
104	9.496000e-06	9.495545e-02	-9.05045e-01	4.999950e-05	
105	9.596000e-06	9.595535e-02	-9.04045e-01	4.999950e-05	
106	9.696000e-06	9.695525e-02	-9.03045e-01	4.999950e-05	
107	9.796000e-06	9.795515e-02	-9.02045e-01	4.999950e-05	
108	9.896000e-06	9.895505e-02	-9.01045e-01	4.999950e-05	
109	9.996000e-06	9.995495e-02	-9.00045e-01	4.999950e-05	
110	1.009600e-05	1.009549e-01	-8.99045e-01	4.999950e-05	
111	1.019600e-05	1.019548e-01	-8.98045e-01	4.999950e-05	
112	1.029600e-05	1.029546e-01	-8.97045e-01	4.999950e-05	

Index   time            v(ramp)         v(threshold_nod v(reset_ctrl)   
--------------------------------------------------------------------------------
113	1.039600e-05	1.039545e-01	-8.96045e-01	4.999950e-05	
114	1.049600e-05	1.049544e-01	-8.95046e-01	4.999950e-05	
115	1.059600e-05	1.059543e-01	-8.94046e-01	4.999950e-05	
116	1.069600e-05	1.069542e-01	-8.93046e-01	4.999950e-05	
117	1.079600e-05	1.079541e-01	-8.92046e-01	4.999950e-05	
118	1.089600e-05	1.089540e-01	-8.91046e-01	4.999950e-05	
119	1.099600e-05	1.099539e-01	-8.90046e-01	4.999950e-05	
120	1.109600e-05	1.109538e-01	-8.89046e-01	4.999950e-05	
121	1.119600e-05	1.119537e-01	-8.88046e-01	4.999950e-05	
122	1.129600e-05	1.129536e-01	-8.87046e-01	4.999950e-05	
123	1.139600e-05	1.139534e-01	-8.86047e-01	4.999950e-05	
124	1.149600e-05	1.149533e-01	-8.85047e-01	4.999950e-05	
125	1.159600e-05	1.159532e-01	-8.84047e-01	4.999950e-05	
126	1.169600e-05	1.169531e-01	-8.83047e-01	4.999950e-05	
127	1.179600e-05	1.179530e-01	-8.82047e-01	4.999950e-05	
128	1.189600e-05	1.189529e-01	-8.81047e-01	4.999950e-05	
129	1.199600e-05	1.199527e-01	-8.80047e-01	4.999950e-05	
130	1.209600e-05	1.209526e-01	-8.79047e-01	4.999950e-05	
131	1.219600e-05	1.219525e-01	-8.78048e-01	4.999950e-05	
132	1.229600e-05	1.229524e-01	-8.77048e-01	4.999950e-05	
133	1.239600e-05	1.239522e-01	-8.76048e-01	4.999950e-05	
134	1.249600e-05	1.249521e-01	-8.75048e-01	4.999950e-05	
135	1.259600e-05	1.259520e-01	-8.74048e-01	4.999950e-05	
136	1.269600e-05	1.269519e-01	-8.73048e-01	4.999950e-05	
137	1.279600e-05	1.279517e-01	-8.72048e-01	4.999950e-05	
138	1.289600e-05	1.289516e-01	-8.71048e-01	4.999950e-05	
139	1.299600e-05	1.299515e-01	-8.70049e-01	4.999950e-05	
140	1.309600e-05	1.309513e-01	-8.69049e-01	4.999950e-05	
141	1.319600e-05	1.319512e-01	-8.68049e-01	4.999950e-05	
142	1.329600e-05	1.329511e-01	-8.67049e-01	4.999950e-05	
143	1.339600e-05	1.339509e-01	-8.66049e-01	4.999950e-05	
144	1.349600e-05	1.349508e-01	-8.65049e-01	4.999950e-05	
145	1.359600e-05	1.359507e-01	-8.64049e-01	4.999950e-05	
146	1.369600e-05	1.369505e-01	-8.63049e-01	4.999950e-05	
147	1.379600e-05	1.379504e-01	-8.62050e-01	4.999950e-05	
148	1.389600e-05	1.389502e-01	-8.61050e-01	4.999950e-05	
149	1.399600e-05	1.399501e-01	-8.60050e-01	4.999950e-05	
150	1.409600e-05	1.409500e-01	-8.59050e-01	4.999950e-05	
151	1.419600e-05	1.419498e-01	-8.58050e-01	4.999950e-05	
152	1.429600e-05	1.429497e-01	-8.57050e-01	4.999950e-05	
153	1.439600e-05	1.439495e-01	-8.56050e-01	4.999950e-05	
154	1.449600e-05	1.449494e-01	-8.55051e-01	4.999950e-05	
155	1.459600e-05	1.459492e-01	-8.54051e-01	4.999950e-05	
156	1.469600e-05	1.469491e-01	-8.53051e-01	4.999950e-05	
157	1.479600e-05	1.479489e-01	-8.52051e-01	4.999950e-05	
158	1.489600e-05	1.489488e-01	-8.51051e-01	4.999950e-05	
159	1.499600e-05	1.499486e-01	-8.50051e-01	4.999950e-05	
160	1.509600e-05	1.509485e-01	-8.49052e-01	4.999950e-05	
161	1.519600e-05	1.519483e-01	-8.48052e-01	4.999950e-05	
162	1.529600e-05	1.529482e-01	-8.47052e-01	4.999950e-05	
163	1.539600e-05	1.539480e-01	-8.46052e-01	4.999950e-05	
164	1.549600e-05	1.549479e-01	-8.45052e-01	4.999950e-05	
165	1.559600e-05	1.559477e-01	-8.44052e-01	4.999950e-05	
166	1.569600e-05	1.569476e-01	-8.43052e-01	4.999950e-05	
167	1.579600e-05	1.579474e-01	-8.42053e-01	4.999950e-05	
168	1.589600e-05	1.589472e-01	-8.41053e-01	4.999950e-05	
169	1.599600e-05	1.599471e-01	-8.40053e-01	4.999950e-05	
170	1.609600e-05	1.609469e-01	-8.39053e-01	4.999950e-05	

Index   time            v(ramp)         v(threshold_nod v(reset_ctrl)   
--------------------------------------------------------------------------------
171	1.619600e-05	1.619468e-01	-8.38053e-01	4.999950e-05	
172	1.629600e-05	1.629466e-01	-8.37053e-01	4.999950e-05	
173	1.639600e-05	1.639464e-01	-8.36054e-01	4.999950e-05	
174	1.649600e-05	1.649463e-01	-8.35054e-01	4.999950e-05	
175	1.659600e-05	1.659461e-01	-8.34054e-01	4.999950e-05	
176	1.669600e-05	1.669459e-01	-8.33054e-01	4.999950e-05	
177	1.679600e-05	1.679458e-01	-8.32054e-01	4.999950e-05	
178	1.689600e-05	1.689456e-01	-8.31054e-01	4.999950e-05	
179	1.699600e-05	1.699454e-01	-8.30055e-01	4.999950e-05	
180	1.709600e-05	1.709452e-01	-8.29055e-01	4.999950e-05	
181	1.719600e-05	1.719451e-01	-8.28055e-01	4.999950e-05	
182	1.729600e-05	1.729449e-01	-8.27055e-01	4.999950e-05	
183	1.739600e-05	1.739447e-01	-8.26055e-01	4.999950e-05	
184	1.749600e-05	1.749445e-01	-8.25055e-01	4.999950e-05	
185	1.759600e-05	1.759444e-01	-8.24056e-01	4.999950e-05	
186	1.769600e-05	1.769442e-01	-8.23056e-01	4.999950e-05	
187	1.779600e-05	1.779440e-01	-8.22056e-01	4.999950e-05	
188	1.789600e-05	1.789438e-01	-8.21056e-01	4.999950e-05	
189	1.799600e-05	1.799436e-01	-8.20056e-01	4.999950e-05	
190	1.809600e-05	1.809435e-01	-8.19057e-01	4.999950e-05	
191	1.819600e-05	1.819433e-01	-8.18057e-01	4.999950e-05	
192	1.829600e-05	1.829431e-01	-8.17057e-01	4.999950e-05	
193	1.839600e-05	1.839429e-01	-8.16057e-01	4.999950e-05	
194	1.849600e-05	1.849427e-01	-8.15057e-01	4.999950e-05	
195	1.859600e-05	1.859425e-01	-8.14057e-01	4.999950e-05	
196	1.869600e-05	1.869423e-01	-8.13058e-01	4.999950e-05	
197	1.879600e-05	1.879422e-01	-8.12058e-01	4.999950e-05	
198	1.889600e-05	1.889420e-01	-8.11058e-01	4.999950e-05	
199	1.899600e-05	1.899418e-01	-8.10058e-01	4.999950e-05	
200	1.909600e-05	1.909416e-01	-8.09058e-01	4.999950e-05	
201	1.919600e-05	1.919414e-01	-8.08059e-01	4.999950e-05	
202	1.929600e-05	1.929412e-01	-8.07059e-01	4.999950e-05	
203	1.939600e-05	1.939410e-01	-8.06059e-01	4.999950e-05	
204	1.949600e-05	1.949408e-01	-8.05059e-01	4.999950e-05	
205	1.959600e-05	1.959406e-01	-8.04059e-01	4.999950e-05	
206	1.969600e-05	1.969404e-01	-8.03060e-01	4.999950e-05	
207	1.979600e-05	1.979402e-01	-8.02060e-01	4.999950e-05	
208	1.989600e-05	1.989400e-01	-8.01060e-01	4.999950e-05	
209	1.999600e-05	1.999398e-01	-8.00060e-01	4.999950e-05	
210	2.009600e-05	2.009396e-01	-7.99060e-01	4.999950e-05	
211	2.019600e-05	2.019394e-01	-7.98061e-01	4.999950e-05	
212	2.029600e-05	2.029392e-01	-7.97061e-01	4.999950e-05	
213	2.039600e-05	2.039390e-01	-7.96061e-01	4.999950e-05	
214	2.049600e-05	2.049388e-01	-7.95061e-01	4.999950e-05	
215	2.059600e-05	2.059386e-01	-7.94061e-01	4.999950e-05	
216	2.069600e-05	2.069384e-01	-7.93062e-01	4.999950e-05	
217	2.079600e-05	2.079382e-01	-7.92062e-01	4.999950e-05	
218	2.089600e-05	2.089380e-01	-7.91062e-01	4.999950e-05	
219	2.099600e-05	2.099377e-01	-7.90062e-01	4.999950e-05	
220	2.109600e-05	2.109375e-01	-7.89062e-01	4.999950e-05	
221	2.119600e-05	2.119373e-01	-7.88063e-01	4.999950e-05	
222	2.129600e-05	2.129371e-01	-7.87063e-01	4.999950e-05	
223	2.139600e-05	2.139369e-01	-7.86063e-01	4.999950e-05	
224	2.149600e-05	2.149367e-01	-7.85063e-01	4.999950e-05	
225	2.159600e-05	2.159364e-01	-7.84064e-01	4.999950e-05	
226	2.169600e-05	2.169362e-01	-7.83064e-01	4.999950e-05	
227	2.179600e-05	2.179360e-01	-7.82064e-01	4.999950e-05	
228	2.189600e-05	2.189358e-01	-7.81064e-01	4.999950e-05	

Index   time            v(ramp)         v(threshold_nod v(reset_ctrl)   
--------------------------------------------------------------------------------
229	2.199600e-05	2.199356e-01	-7.80064e-01	4.999950e-05	
230	2.209600e-05	2.209353e-01	-7.79065e-01	4.999950e-05	
231	2.219600e-05	2.219351e-01	-7.78065e-01	4.999950e-05	
232	2.229600e-05	2.229349e-01	-7.77065e-01	4.999950e-05	
233	2.239600e-05	2.239347e-01	-7.76065e-01	4.999950e-05	
234	2.249600e-05	2.249344e-01	-7.75066e-01	4.999950e-05	
235	2.259600e-05	2.259342e-01	-7.74066e-01	4.999950e-05	
236	2.269600e-05	2.269340e-01	-7.73066e-01	4.999950e-05	
237	2.279600e-05	2.279338e-01	-7.72066e-01	4.999950e-05	
238	2.289600e-05	2.289335e-01	-7.71066e-01	4.999950e-05	
239	2.299600e-05	2.299333e-01	-7.70067e-01	4.999950e-05	
240	2.309600e-05	2.309331e-01	-7.69067e-01	4.999950e-05	
241	2.319600e-05	2.319328e-01	-7.68067e-01	4.999950e-05	
242	2.329600e-05	2.329326e-01	-7.67067e-01	4.999950e-05	
243	2.339600e-05	2.339324e-01	-7.66068e-01	4.999950e-05	
244	2.349600e-05	2.349321e-01	-7.65068e-01	4.999950e-05	
245	2.359600e-05	2.359319e-01	-7.64068e-01	4.999950e-05	
246	2.369600e-05	2.369316e-01	-7.63068e-01	4.999950e-05	
247	2.379600e-05	2.379314e-01	-7.62069e-01	4.999950e-05	
248	2.389600e-05	2.389312e-01	-7.61069e-01	4.999950e-05	
249	2.399600e-05	2.399309e-01	-7.60069e-01	4.999950e-05	
250	2.409600e-05	2.409307e-01	-7.59069e-01	4.999950e-05	
251	2.419600e-05	2.419304e-01	-7.58070e-01	4.999950e-05	
252	2.429600e-05	2.429302e-01	-7.57070e-01	4.999950e-05	
253	2.439600e-05	2.439299e-01	-7.56070e-01	4.999950e-05	
254	2.449600e-05	2.449297e-01	-7.55070e-01	4.999950e-05	
255	2.459600e-05	2.459295e-01	-7.54071e-01	4.999950e-05	
256	2.469600e-05	2.469292e-01	-7.53071e-01	4.999950e-05	
257	2.479600e-05	2.479290e-01	-7.52071e-01	4.999950e-05	
258	2.489600e-05	2.489287e-01	-7.51071e-01	4.999950e-05	
259	2.499600e-05	2.499285e-01	-7.50072e-01	4.999950e-05	
260	2.509600e-05	2.509282e-01	-7.49072e-01	4.999950e-05	
261	2.519600e-05	2.519279e-01	-7.48072e-01	4.999950e-05	
262	2.529600e-05	2.529277e-01	-7.47072e-01	4.999950e-05	
263	2.539600e-05	2.539274e-01	-7.46073e-01	4.999950e-05	
264	2.549600e-05	2.549272e-01	-7.45073e-01	4.999950e-05	
265	2.559600e-05	2.559269e-01	-7.44073e-01	4.999950e-05	
266	2.569600e-05	2.569267e-01	-7.43073e-01	4.999950e-05	
267	2.579600e-05	2.579264e-01	-7.42074e-01	4.999950e-05	
268	2.589600e-05	2.589261e-01	-7.41074e-01	4.999950e-05	
269	2.599600e-05	2.599259e-01	-7.40074e-01	4.999950e-05	
270	2.609600e-05	2.609256e-01	-7.39074e-01	4.999950e-05	
271	2.619600e-05	2.619253e-01	-7.38075e-01	4.999950e-05	
272	2.629600e-05	2.629251e-01	-7.37075e-01	4.999950e-05	
273	2.639600e-05	2.639248e-01	-7.36075e-01	4.999950e-05	
274	2.649600e-05	2.649246e-01	-7.35075e-01	4.999950e-05	
275	2.659600e-05	2.659243e-01	-7.34076e-01	4.999950e-05	
276	2.669600e-05	2.669240e-01	-7.33076e-01	4.999950e-05	
277	2.679600e-05	2.679237e-01	-7.32076e-01	4.999950e-05	
278	2.689600e-05	2.689235e-01	-7.31077e-01	4.999950e-05	
279	2.699600e-05	2.699232e-01	-7.30077e-01	4.999950e-05	
280	2.709600e-05	2.709229e-01	-7.29077e-01	4.999950e-05	
281	2.719600e-05	2.719227e-01	-7.28077e-01	4.999950e-05	
282	2.729600e-05	2.729224e-01	-7.27078e-01	4.999950e-05	
283	2.739600e-05	2.739221e-01	-7.26078e-01	4.999950e-05	
284	2.749600e-05	2.749218e-01	-7.25078e-01	4.999950e-05	
285	2.759600e-05	2.759215e-01	-7.24078e-01	4.999950e-05	
286	2.769600e-05	2.769213e-01	-7.23079e-01	4.999950e-05	

Index   time            v(ramp)         v(threshold_nod v(reset_ctrl)   
--------------------------------------------------------------------------------
287	2.779600e-05	2.779210e-01	-7.22079e-01	4.999950e-05	
288	2.789600e-05	2.789207e-01	-7.21079e-01	4.999950e-05	
289	2.799600e-05	2.799204e-01	-7.20080e-01	4.999950e-05	
290	2.809600e-05	2.809201e-01	-7.19080e-01	4.999950e-05	
291	2.819600e-05	2.819199e-01	-7.18080e-01	4.999950e-05	
292	2.829600e-05	2.829196e-01	-7.17080e-01	4.999950e-05	
293	2.839600e-05	2.839193e-01	-7.16081e-01	4.999950e-05	
294	2.849600e-05	2.849190e-01	-7.15081e-01	4.999950e-05	
295	2.859600e-05	2.859187e-01	-7.14081e-01	4.999950e-05	
296	2.869600e-05	2.869184e-01	-7.13082e-01	4.999950e-05	
297	2.879600e-05	2.879181e-01	-7.12082e-01	4.999950e-05	
298	2.889600e-05	2.889178e-01	-7.11082e-01	4.999950e-05	
299	2.899600e-05	2.899175e-01	-7.10082e-01	4.999950e-05	
300	2.909600e-05	2.909173e-01	-7.09083e-01	4.999950e-05	
301	2.919600e-05	2.919170e-01	-7.08083e-01	4.999950e-05	
302	2.929600e-05	2.929167e-01	-7.07083e-01	4.999950e-05	
303	2.939600e-05	2.939164e-01	-7.06084e-01	4.999950e-05	
304	2.949600e-05	2.949161e-01	-7.05084e-01	4.999950e-05	
305	2.959600e-05	2.959158e-01	-7.04084e-01	4.999950e-05	
306	2.969600e-05	2.969155e-01	-7.03085e-01	4.999950e-05	
307	2.979600e-05	2.979152e-01	-7.02085e-01	4.999950e-05	
308	2.989600e-05	2.989149e-01	-7.01085e-01	4.999950e-05	
309	2.999600e-05	2.999146e-01	-7.00085e-01	4.999950e-05	
310	3.009600e-05	3.009143e-01	-6.99086e-01	4.999950e-05	
311	3.019600e-05	3.019140e-01	-6.98086e-01	4.999950e-05	
312	3.029600e-05	3.029137e-01	-6.97086e-01	4.999950e-05	
313	3.039600e-05	3.039133e-01	-6.96087e-01	4.999950e-05	
314	3.049600e-05	3.049130e-01	-6.95087e-01	4.999950e-05	
315	3.059600e-05	3.059127e-01	-6.94087e-01	4.999950e-05	
316	3.069600e-05	3.069124e-01	-6.93088e-01	4.999950e-05	
317	3.079600e-05	3.079121e-01	-6.92088e-01	4.999950e-05	
318	3.089600e-05	3.089118e-01	-6.91088e-01	4.999950e-05	
319	3.099600e-05	3.099115e-01	-6.90089e-01	4.999950e-05	
320	3.109600e-05	3.109112e-01	-6.89089e-01	4.999950e-05	
321	3.119600e-05	3.119109e-01	-6.88089e-01	4.999950e-05	
322	3.129600e-05	3.129105e-01	-6.87089e-01	4.999950e-05	
323	3.139600e-05	3.139102e-01	-6.86090e-01	4.999950e-05	
324	3.149600e-05	3.149099e-01	-6.85090e-01	4.999950e-05	
325	3.159600e-05	3.159096e-01	-6.84090e-01	4.999950e-05	
326	3.169600e-05	3.169093e-01	-6.83091e-01	4.999950e-05	
327	3.179600e-05	3.179090e-01	-6.82091e-01	4.999950e-05	
328	3.189600e-05	3.189086e-01	-6.81091e-01	4.999950e-05	
329	3.199600e-05	3.199083e-01	-6.80092e-01	4.999950e-05	
330	3.209600e-05	3.209080e-01	-6.79092e-01	4.999950e-05	
331	3.219600e-05	3.219077e-01	-6.78092e-01	4.999950e-05	
